 (1628569099.387210)  can1  0000000A   [8]  20 46 52 4F 4E 54 20 20
 (1628569099.387691)  can1  00000004   [5]  11 18 14 6C 00
 (1628569099.487630)  can1  0000000A   [8]  20 46 52 4F 4E 54 20 20
 (1628569099.488079)  can1  00000004   [5]  11 17 14 6E 00
 (1628569099.588021)  can1  0000000A   [8]  20 46 52 4F 4E 54 20 20
 (1628569099.588467)  can1  00000004   [5]  11 17 14 6E 00
 (1628569099.688432)  can1  0000000A   [8]  20 46 52 4F 4E 54 20 20
 (1628569099.688902)  can1  00000004   [5]  11 16 14 6E 00
 (1628569099.788808)  can1  0000000A   [8]  20 46 52 4F 4E 54 20 20
 (1628569099.789270)  can1  00000004   [5]  11 17 14 6E 00
 (1628569099.889214)  can1  0000000A   [8]  20 46 52 4F 4E 54 20 20
 (1628569099.889677)  can1  00000004   [5]  11 18 16 6E 00
 (1628569099.989581)  can1  0000000A   [8]  20 46 52 4F 4E 54 20 20
 (1628569099.990044)  can1  00000004   [5]  11 17 14 6E 00
 (1628569100.089989)  can1  0000000A   [8]  20 46 52 4F 4E 54 20 20
 (1628569100.090766)  can1  00000004   [5]  11 18 14 6E 00
 (1628569100.190365)  can1  0000000A   [8]  20 46 52 4F 4E 54 20 20
 (1628569100.190828)  can1  00000004   [5]  11 18 15 6E 00
 (1628569100.290774)  can1  0000000A   [8]  20 46 52 4F 4E 54 20 20
 (1628569100.291231)  can1  00000004   [5]  11 17 15 6E 00
 (1628569100.391203)  can1  0000000A   [8]  20 46 52 4F 4E 54 20 20
 (1628569100.391666)  can1  00000004   [5]  11 16 14 6E 00
 (1628569100.491595)  can1  0000000A   [8]  20 46 52 4F 4E 54 20 20
 (1628569100.492059)  can1  00000004   [5]  11 18 14 6E 00
 (1628569100.592013)  can1  0000000A   [8]  20 46 52 4F 4E 54 20 20
 (1628569100.592478)  can1  00000004   [5]  11 18 14 6E 00
 (1628569100.692404)  can1  0000000A   [8]  20 46 52 4F 4E 54 20 20
 (1628569100.692870)  can1  00000004   [5]  11 18 14 6E 00
 (1628569100.792843)  can1  0000000A   [8]  20 46 52 4F 4E 54 20 20
 (1628569100.793336)  can1  00000004   [5]  11 18 14 6E 00
 (1628569100.893243)  can1  0000000A   [8]  20 46 52 4F 4E 54 20 20
 (1628569100.893700)  can1  00000004   [5]  11 17 15 6F 00
 (1628569100.993666)  can1  0000000A   [8]  20 46 52 4F 4E 54 20 20
 (1628569100.994152)  can1  00000004   [5]  11 18 14 6E 00
 (1628569101.094062)  can1  0000000A   [8]  20 46 52 4F 4E 54 20 20
 (1628569101.094840)  can1  00000004   [5]  11 17 15 6F 00
 (1628569101.194515)  can1  0000000A   [8]  20 46 52 4F 4E 54 20 20
 (1628569101.194969)  can1  00000004   [5]  11 18 16 6E 00
 (1628569101.294891)  can1  0000000A   [8]  20 46 52 4F 4E 54 20 20
 (1628569101.295362)  can1  00000004   [5]  11 18 14 6F 00
 (1628569101.395337)  can1  0000000A   [8]  20 46 52 4F 4E 54 20 20
 (1628569101.395804)  can1  00000004   [5]  11 18 15 6F 00
 (1628569101.495754)  can1  0000000A   [8]  20 46 52 4F 4E 54 20 20
 (1628569101.496228)  can1  00000004   [5]  11 18 16 6F 00
 (1628569101.596219)  can1  0000000A   [8]  20 46 52 4F 4E 54 20 20
 (1628569101.596688)  can1  00000004   [5]  11 17 15 6F 00
 (1628569101.696636)  can1  0000000A   [8]  20 46 52 4F 4E 54 20 20
 (1628569101.697114)  can1  00000004   [5]  11 18 15 6F 00
 (1628569101.797070)  can1  0000000A   [8]  20 46 52 4F 4E 54 20 20
 (1628569101.797536)  can1  00000004   [5]  11 17 15 6F 00
 (1628569101.897454)  can1  0000000A   [8]  20 46 52 4F 4E 54 20 20
 (1628569101.897913)  can1  00000004   [5]  11 17 15 6F 00
 (1628569101.997906)  can1  0000000A   [8]  20 46 52 4F 4E 54 20 20
 (1628569101.998429)  can1  00000004   [5]  11 18 15 6F 00
 (1628569102.098358)  can1  0000000A   [8]  20 46 52 4F 4E 54 20 20
 (1628569102.098826)  can1  00000004   [5]  11 18 16 6F 00
 (1628569102.198775)  can1  0000000A   [8]  20 46 52 4F 4E 54 20 20
 (1628569102.199273)  can1  00000004   [5]  11 18 16 6F 00
 (1628569102.299224)  can1  0000000A   [8]  20 46 52 4F 4E 54 20 20
 (1628569102.299681)  can1  00000004   [5]  11 17 15 72 00
 (1628569102.399605)  can1  0000000A   [8]  20 46 52 4F 4E 54 20 20
 (1628569102.400068)  can1  00000004   [5]  11 18 16 6F 00
 (1628569102.500045)  can1  0000000A   [8]  20 46 52 4F 4E 54 20 20
 (1628569102.500499)  can1  00000004   [5]  11 17 15 6F 00
 (1628569102.600434)  can1  0000000A   [8]  20 46 52 4F 4E 54 20 20
 (1628569102.600891)  can1  00000004   [5]  11 17 15 72 00
 (1628569102.700860)  can1  0000000A   [8]  20 46 52 4F 4E 54 20 20
 (1628569102.701340)  can1  00000004   [5]  11 18 15 72 00
 (1628569102.801244)  can1  0000000A   [8]  20 46 52 4F 4E 54 20 20
 (1628569102.801702)  can1  00000004   [5]  11 18 15 72 00
 (1628569102.901646)  can1  0000000A   [8]  20 46 52 4F 4E 54 20 20
 (1628569102.902104)  can1  00000004   [5]  11 18 16 72 00
 (1628569103.002055)  can1  0000000A   [8]  20 46 52 4F 4E 54 20 20
 (1628569103.002539)  can1  00000004   [5]  11 18 16 72 00
 (1628569103.102452)  can1  0000000A   [8]  20 46 52 4F 4E 54 20 20
 (1628569103.102927)  can1  00000004   [5]  11 18 16 74 00
 (1628569103.202847)  can1  0000000A   [8]  20 46 52 4F 4E 54 20 20
 (1628569103.203294)  can1  00000004   [5]  11 18 16 74 00
 (1628569103.303254)  can1  0000000A   [8]  20 46 52 4F 4E 54 20 20
 (1628569103.303711)  can1  00000004   [5]  11 17 15 72 00
 (1628569103.403671)  can1  0000000A   [8]  20 46 52 4F 4E 54 20 20
 (1628569103.404148)  can1  00000004   [5]  11 18 15 72 00
 (1628569103.504070)  can1  0000000A   [8]  20 46 52 4F 4E 54 20 20
 (1628569103.504504)  can1  00000004   [5]  11 18 16 72 00
 (1628569103.604477)  can1  0000000A   [8]  20 46 52 4F 4E 54 20 20
 (1628569103.604950)  can1  00000004   [5]  11 18 16 74 00
 (1628569103.704881)  can1  0000000A   [8]  20 46 52 4F 4E 54 20 20
 (1628569103.705354)  can1  00000004   [5]  11 18 16 74 00
 (1628569103.805351)  can1  0000000A   [8]  20 46 52 4F 4E 54 20 20
 (1628569103.805789)  can1  00000004   [5]  11 18 16 74 00
 (1628569103.905739)  can1  0000000A   [8]  20 46 52 4F 4E 54 20 20
 (1628569103.906210)  can1  00000004   [5]  11 1A 15 73 00
 (1628569104.006174)  can1  0000000A   [8]  20 46 52 4F 4E 54 20 20
 (1628569104.006630)  can1  00000004   [5]  11 18 16 74 00
 (1628569104.106586)  can1  0000000A   [8]  20 46 52 4F 4E 54 20 20
 (1628569104.107062)  can1  00000004   [5]  11 18 15 76 00
 (1628569104.207035)  can1  0000000A   [8]  20 46 52 4F 4E 54 20 20
 (1628569104.207484)  can1  00000004   [5]  11 18 18 76 00
 (1628569104.307448)  can1  0000000A   [8]  20 46 52 4F 4E 54 20 20
 (1628569104.307902)  can1  00000004   [5]  11 18 16 76 00
 (1628569104.407862)  can1  0000000A   [8]  20 46 52 4F 4E 54 20 20
 (1628569104.408317)  can1  00000004   [5]  11 18 16 74 00
 (1628569104.508247)  can1  0000000A   [8]  20 46 52 4F 4E 54 20 20
 (1628569104.508736)  can1  00000004   [5]  11 18 18 76 00
 (1628569104.608683)  can1  0000000A   [8]  20 46 52 4F 4E 54 20 20
 (1628569104.609130)  can1  00000004   [5]  11 1A 16 76 00
 (1628569104.709080)  can1  0000000A   [8]  20 46 52 4F 4E 54 20 20
 (1628569104.709537)  can1  00000004   [5]  11 18 16 74 00
 (1628569104.809511)  can1  0000000A   [8]  20 46 52 4F 4E 54 20 20
 (1628569104.809966)  can1  00000004   [5]  11 18 16 76 00
 (1628569104.909927)  can1  0000000A   [8]  20 46 52 4F 4E 54 20 20
 (1628569104.910410)  can1  00000004   [5]  11 18 16 76 00
 (1628569105.010336)  can1  0000000A   [8]  20 46 52 4F 4E 54 20 20
 (1628569105.010792)  can1  00000004   [5]  11 18 16 76 00
 (1628569105.110768)  can1  0000000A   [8]  20 46 52 4F 4E 54 20 20
 (1628569105.111226)  can1  00000004   [5]  11 18 16 76 00
 (1628569105.211145)  can1  0000000A   [8]  20 46 52 4F 4E 54 20 20
 (1628569105.211602)  can1  00000004   [5]  11 18 16 76 00
 (1628569105.311573)  can1  0000000A   [8]  20 46 52 4F 4E 54 20 20
 (1628569105.312029)  can1  00000004   [5]  11 1A 16 76 00
 (1628569105.411960)  can1  0000000A   [8]  20 46 52 4F 4E 54 20 20
 (1628569105.412419)  can1  00000004   [5]  11 18 16 76 00
 (1628569105.512411)  can1  0000000A   [8]  20 46 52 4F 4E 54 20 20
 (1628569105.512871)  can1  00000004   [5]  11 18 16 76 00
 (1628569105.612823)  can1  0000000A   [8]  20 46 52 4F 4E 54 20 20
 (1628569105.613281)  can1  00000004   [5]  11 18 16 76 00
 (1628569105.713244)  can1  0000000A   [8]  20 46 52 4F 4E 54 20 20
 (1628569105.713702)  can1  00000004   [5]  11 18 16 76 00
 (1628569105.813649)  can1  0000000A   [8]  20 46 52 4F 4E 54 20 20
 (1628569105.814107)  can1  00000004   [5]  11 18 16 76 00
 (1628569105.914078)  can1  0000000A   [8]  20 46 52 4F 4E 54 20 20
 (1628569105.914533)  can1  00000004   [5]  11 18 18 76 00
 (1628569106.014477)  can1  0000000A   [8]  20 46 52 4F 4E 54 20 20
 (1628569106.014937)  can1  00000004   [5]  11 18 16 76 00
 (1628569106.114923)  can1  0000000A   [8]  20 46 52 4F 4E 54 20 20
 (1628569106.115362)  can1  00000004   [5]  11 18 16 76 00
 (1628569106.215305)  can1  0000000A   [8]  20 46 52 4F 4E 54 20 20
 (1628569106.215807)  can1  00000004   [5]  11 18 16 76 00
 (1628569106.315754)  can1  0000000A   [8]  20 46 52 4F 4E 54 20 20
 (1628569106.316207)  can1  00000004   [5]  11 1A 16 77 00
 (1628569106.416182)  can1  0000000A   [8]  20 46 52 4F 4E 54 20 20
 (1628569106.416656)  can1  00000004   [5]  11 18 16 76 00
 (1628569106.516572)  can1  0000000A   [8]  20 46 52 4F 4E 54 20 20
 (1628569106.517037)  can1  00000004   [5]  11 18 16 76 00
 (1628569106.617027)  can1  0000000A   [8]  20 46 52 4F 4E 54 20 20
 (1628569106.617447)  can1  00000004   [5]  11 18 16 76 00
 (1628569106.717398)  can1  0000000A   [8]  20 46 52 4F 4E 54 20 20
 (1628569106.717857)  can1  00000004   [5]  11 18 16 76 00
 (1628569106.817838)  can1  0000000A   [8]  20 46 52 4F 4E 54 20 20
 (1628569106.818309)  can1  00000004   [5]  11 18 16 77 00
 (1628569106.918232)  can1  0000000A   [8]  20 46 52 4F 4E 54 20 20
 (1628569106.918678)  can1  00000004   [5]  11 1A 16 77 00
 (1628569107.018662)  can1  0000000A   [8]  20 46 52 4F 4E 54 20 20
 (1628569107.019121)  can1  00000004   [5]  11 18 16 77 00
 (1628569107.119048)  can1  0000000A   [8]  20 46 52 4F 4E 54 20 20
 (1628569107.119505)  can1  00000004   [5]  11 18 16 77 00
 (1628569107.219481)  can1  0000000A   [8]  20 46 52 4F 4E 54 20 20
 (1628569107.219956)  can1  00000004   [5]  11 18 18 77 00
 (1628569107.319867)  can1  0000000A   [8]  20 46 52 4F 4E 54 20 20
 (1628569107.320348)  can1  00000004   [5]  11 18 16 77 00
 (1628569107.420298)  can1  0000000A   [8]  20 46 52 4F 4E 54 20 20
 (1628569107.420803)  can1  00000004   [5]  11 18 16 77 00
 (1628569107.520697)  can1  0000000A   [8]  20 46 52 4F 4E 54 20 20
 (1628569107.521162)  can1  00000004   [5]  11 18 18 77 00
 (1628569107.621136)  can1  0000000A   [8]  20 46 52 4F 4E 54 20 20
 (1628569107.621599)  can1  00000004   [5]  11 1A 16 77 00
 (1628569107.721530)  can1  0000000A   [8]  20 46 52 4F 4E 54 20 20
 (1628569107.721992)  can1  00000004   [5]  11 18 16 78 00
 (1628569107.821958)  can1  0000000A   [8]  20 46 52 4F 4E 54 20 20
 (1628569107.822451)  can1  00000004   [5]  11 1A 16 77 00
 (1628569107.922368)  can1  0000000A   [8]  20 46 52 4F 4E 54 20 20
 (1628569107.922812)  can1  00000004   [5]  11 1A 16 77 00
 (1628569108.022811)  can1  0000000A   [8]  20 46 52 4F 4E 54 20 20
 (1628569108.023277)  can1  00000004   [5]  11 18 18 77 00
 (1628569108.123251)  can1  0000000A   [8]  20 46 52 4F 4E 54 20 20
 (1628569108.123726)  can1  00000004   [5]  11 18 18 7A 00
 (1628569108.223660)  can1  0000000A   [8]  20 46 52 4F 4E 54 20 20
 (1628569108.224122)  can1  00000004   [5]  11 18 18 7A 00
 (1628569108.324100)  can1  0000000A   [8]  20 46 52 4F 4E 54 20 20
 (1628569108.324585)  can1  00000004   [5]  11 1A 16 77 00
 (1628569108.424480)  can1  0000000A   [8]  20 46 52 4F 4E 54 20 20
 (1628569108.424927)  can1  00000004   [5]  11 18 18 7A 00
 (1628569108.524909)  can1  0000000A   [8]  20 46 52 4F 4E 54 20 20
 (1628569108.525361)  can1  00000004   [5]  11 1A 16 7A 00
 (1628569108.625301)  can1  0000000A   [8]  20 46 52 4F 4E 54 20 20
 (1628569108.625761)  can1  00000004   [5]  11 1A 16 7A 00
 (1628569108.725729)  can1  0000000A   [8]  20 46 52 4F 4E 54 20 20
 (1628569108.726192)  can1  00000004   [5]  11 1A 18 7A 00
 (1628569108.826140)  can1  0000000A   [8]  20 46 52 4F 4E 54 20 20
 (1628569108.826574)  can1  00000004   [5]  11 1A 18 7A 00
 (1628569108.926555)  can1  0000000A   [8]  20 46 52 4F 4E 54 20 20
 (1628569108.927058)  can1  00000004   [5]  11 18 18 7C 00
 (1628569109.026950)  can1  0000000A   [8]  20 46 52 4F 4E 54 20 20
 (1628569109.027443)  can1  00000004   [5]  11 18 18 7A 00
 (1628569109.127376)  can1  0000000A   [8]  20 46 52 4F 4E 54 20 20
 (1628569109.127900)  can1  00000004   [5]  11 18 18 7C 00
 (1628569109.227751)  can1  0000000A   [8]  20 46 52 4F 4E 54 20 20
 (1628569109.228273)  can1  00000004   [5]  11 18 18 7C 00
 (1628569109.328192)  can1  0000000A   [8]  20 46 52 4F 4E 54 20 20
 (1628569109.328714)  can1  00000004   [5]  11 1A 16 7B 00
 (1628569109.428618)  can1  0000000A   [8]  20 46 52 4F 4E 54 20 20
 (1628569109.429183)  can1  00000004   [5]  11 18 18 7C 00
 (1628569109.529013)  can1  0000000A   [8]  20 46 52 4F 4E 54 20 20
 (1628569109.529473)  can1  00000004   [5]  11 18 18 7C 00
 (1628569109.629427)  can1  0000000A   [8]  20 46 52 4F 4E 54 20 20
 (1628569109.629902)  can1  00000004   [5]  11 18 18 7C 00
 (1628569109.729827)  can1  0000000A   [8]  20 46 52 4F 4E 54 20 20
 (1628569109.730299)  can1  00000004   [5]  11 18 18 7C 00
 (1628569109.830269)  can1  0000000A   [8]  20 46 52 4F 4E 54 20 20
 (1628569109.830746)  can1  00000004   [5]  11 18 18 7C 00
 (1628569109.930679)  can1  0000000A   [8]  20 46 52 4F 4E 54 20 20
 (1628569109.931129)  can1  00000004   [5]  11 1A 17 7B 00
 (1628569110.031094)  can1  0000000A   [8]  20 46 52 4F 4E 54 20 20
 (1628569110.031552)  can1  00000004   [5]  11 1A 18 7E 00
 (1628569110.131473)  can1  0000000A   [8]  20 46 52 4F 4E 54 20 20
 (1628569110.131937)  can1  00000004   [5]  11 1A 18 7E 00
 (1628569110.231893)  can1  0000000A   [8]  20 46 52 4F 4E 54 20 20
 (1628569110.232348)  can1  00000004   [5]  11 19 18 7E 00
 (1628569110.332267)  can1  0000000A   [8]  20 46 52 4F 4E 54 20 20
 (1628569110.332727)  can1  00000004   [5]  11 18 18 7E 00
 (1628569110.432679)  can1  0000000A   [8]  20 46 52 4F 4E 54 20 20
 (1628569110.433139)  can1  00000004   [5]  11 19 18 7C 00
 (1628569110.533061)  can1  0000000A   [8]  20 46 52 4F 4E 54 20 20
 (1628569110.533520)  can1  00000004   [5]  11 19 18 7E 00
 (1628569110.633492)  can1  0000000A   [8]  20 46 52 4F 4E 54 20 20
 (1628569110.633957)  can1  00000004   [5]  11 1A 16 7E 00
 (1628569110.733869)  can1  0000000A   [8]  20 46 52 4F 4E 54 20 20
 (1628569110.734330)  can1  00000004   [5]  11 19 18 7E 00
 (1628569110.834301)  can1  0000000A   [8]  20 46 52 4F 4E 54 20 20
 (1628569110.834768)  can1  00000004   [5]  11 1A 18 7E 00
 (1628569110.934706)  can1  0000000A   [8]  20 46 52 4F 4E 54 20 20
 (1628569110.935166)  can1  00000004   [5]  11 1A 18 7E 00
 (1628569111.035144)  can1  0000000A   [8]  20 46 52 4F 4E 54 20 20
 (1628569111.035603)  can1  00000004   [5]  11 1A 18 7E 00
 (1628569111.135576)  can1  0000000A   [8]  20 46 52 4F 4E 54 20 20
 (1628569111.136034)  can1  00000004   [5]  11 19 18 7E 00
 (1628569111.235961)  can1  0000000A   [8]  20 46 52 4F 4E 54 20 20
 (1628569111.236424)  can1  00000004   [5]  11 19 18 7E 00
 (1628569111.336403)  can1  0000000A   [8]  20 46 52 4F 4E 54 20 20
 (1628569111.336868)  can1  00000004   [5]  11 1A 18 7E 00
 (1628569111.436796)  can1  0000000A   [8]  20 46 52 4F 4E 54 20 20
 (1628569111.437255)  can1  00000004   [5]  11 19 18 7E 00
 (1628569111.537255)  can1  0000000A   [8]  20 46 52 4F 4E 54 20 20
 (1628569111.537714)  can1  00000004   [5]  11 1A 18 7E 00
 (1628569111.637681)  can1  0000000A   [8]  20 46 52 4F 4E 54 20 20
 (1628569111.638138)  can1  00000004   [5]  11 1A 18 7E 00
 (1628569111.738127)  can1  0000000A   [8]  20 46 52 4F 4E 54 20 20
 (1628569111.738583)  can1  00000004   [5]  11 1A 18 7E 00
 (1628569111.838528)  can1  0000000A   [8]  20 46 52 4F 4E 54 20 20
 (1628569111.838988)  can1  00000004   [5]  11 1A 18 7E 00
 (1628569111.938969)  can1  0000000A   [8]  20 46 52 4F 4E 54 20 20
 (1628569111.939431)  can1  00000004   [5]  11 1A 18 7E 00
 (1628569112.039379)  can1  0000000A   [8]  20 46 52 4F 4E 54 20 20
 (1628569112.039839)  can1  00000004   [5]  11 1A 18 7E 00
 (1628569112.139834)  can1  0000000A   [8]  20 46 52 4F 4E 54 20 20
 (1628569112.140288)  can1  00000004   [5]  11 19 18 7E 00
 (1628569112.240257)  can1  0000000A   [8]  20 46 52 4F 4E 54 20 20
 (1628569112.240721)  can1  00000004   [5]  11 19 18 7E 00
 (1628569112.340731)  can1  0000000A   [8]  20 46 52 4F 4E 54 20 20
 (1628569112.341194)  can1  00000004   [5]  11 1A 18 7F 00
 (1628569112.441217)  can1  0000000A   [8]  20 46 52 4F 4E 54 20 20
 (1628569112.441693)  can1  00000004   [5]  11 1A 18 7E 00
 (1628569112.541631)  can1  0000000A   [8]  20 46 52 4F 4E 54 20 20
 (1628569112.542080)  can1  00000004   [5]  11 1A 18 7E 00
 (1628569112.642084)  can1  0000000A   [8]  20 46 52 4F 4E 54 20 20
 (1628569112.642552)  can1  00000004   [5]  11 19 18 7F 00
 (1628569112.742496)  can1  0000000A   [8]  20 46 52 4F 4E 54 20 20
 (1628569112.742959)  can1  00000004   [5]  11 1A 18 7F 00
 (1628569112.842940)  can1  0000000A   [8]  20 46 52 4F 4E 54 20 20
 (1628569112.843401)  can1  00000004   [5]  11 1A 18 7F 00
 (1628569112.943356)  can1  0000000A   [8]  20 46 52 4F 4E 54 20 20
 (1628569112.943816)  can1  00000004   [5]  11 1A 18 82 00
 (1628569113.043792)  can1  0000000A   [8]  20 46 52 4F 4E 54 20 20
 (1628569113.044254)  can1  00000004   [5]  11 1A 18 82 00
 (1628569113.144189)  can1  0000000A   [8]  20 46 52 4F 4E 54 20 20
 (1628569113.144644)  can1  00000004   [5]  11 1A 18 82 00
 (1628569113.244623)  can1  0000000A   [8]  20 46 52 4F 4E 54 20 20
 (1628569113.245087)  can1  00000004   [5]  11 1C 18 82 00
 (1628569113.345016)  can1  0000000A   [8]  20 46 52 4F 4E 54 20 20
 (1628569113.345476)  can1  00000004   [5]  11 1A 18 82 00
 (1628569113.445429)  can1  0000000A   [8]  20 46 52 4F 4E 54 20 20
 (1628569113.445895)  can1  00000004   [5]  11 1C 18 80 00
 (1628569113.545816)  can1  0000000A   [8]  20 46 52 4F 4E 54 20 20
 (1628569113.546278)  can1  00000004   [5]  11 1C 18 82 00
 (1628569113.646254)  can1  0000000A   [8]  20 46 52 4F 4E 54 20 20
 (1628569113.646710)  can1  00000004   [5]  11 1A 18 82 00
 (1628569113.746627)  can1  0000000A   [8]  20 46 52 4F 4E 54 20 20
 (1628569113.747091)  can1  00000004   [5]  11 1C 18 82 00
 (1628569113.847045)  can1  0000000A   [8]  20 46 52 4F 4E 54 20 20
 (1628569113.847507)  can1  00000004   [5]  11 1A 18 82 00
 (1628569113.947405)  can1  0000000A   [8]  20 46 52 4F 4E 54 20 20
 (1628569113.947869)  can1  00000004   [5]  11 1A 18 82 00
 (1628569114.047807)  can1  0000000A   [8]  20 46 52 4F 4E 54 20 20
 (1628569114.048273)  can1  00000004   [5]  11 1C 18 82 00
 (1628569114.148209)  can1  0000000A   [8]  20 46 52 4F 4E 54 20 20
 (1628569114.148674)  can1  00000004   [5]  11 1C 18 82 00
 (1628569114.248598)  can1  0000000A   [8]  20 46 52 4F 4E 54 20 20
 (1628569114.249060)  can1  00000004   [5]  11 1C 18 82 00
 (1628569114.348998)  can1  0000000A   [8]  20 46 52 4F 4E 54 20 20
 (1628569114.349463)  can1  00000004   [5]  11 1A 18 82 00
 (1628569114.449370)  can1  0000000A   [8]  20 46 52 4F 4E 54 20 20
 (1628569114.449833)  can1  00000004   [5]  11 1C 18 84 00
 (1628569114.549785)  can1  0000000A   [8]  20 46 52 4F 4E 54 20 20
 (1628569114.550247)  can1  00000004   [5]  11 1A 18 82 00
 (1628569114.650148)  can1  0000000A   [8]  20 46 52 4F 4E 54 20 20
 (1628569114.650632)  can1  00000004   [5]  11 1A 18 82 00
 (1628569114.750553)  can1  0000000A   [8]  20 46 52 4F 4E 54 20 20
 (1628569114.751004)  can1  00000004   [5]  11 1C 18 82 00
 (1628569114.850918)  can1  0000000A   [8]  20 46 52 4F 4E 54 20 20
 (1628569114.851385)  can1  00000004   [5]  11 1C 18 82 00
 (1628569114.951336)  can1  0000000A   [8]  20 46 52 4F 4E 54 20 20
 (1628569114.951810)  can1  00000004   [5]  11 1C 18 84 00
 (1628569115.051713)  can1  0000000A   [8]  20 46 52 4F 4E 54 20 20
 (1628569115.052191)  can1  00000004   [5]  11 1C 18 84 00
 (1628569115.152111)  can1  0000000A   [8]  20 46 52 4F 4E 54 20 20
 (1628569115.152572)  can1  00000004   [5]  11 1C 18 84 00
 (1628569115.252481)  can1  0000000A   [8]  20 46 52 4F 4E 54 20 20
 (1628569115.252955)  can1  00000004   [5]  11 1C 18 84 00
 (1628569115.352873)  can1  0000000A   [8]  20 46 52 4F 4E 54 20 20
 (1628569115.353321)  can1  00000004   [5]  11 1A 18 83 00
 (1628569115.453259)  can1  0000000A   [8]  20 46 52 4F 4E 54 20 20
 (1628569115.453733)  can1  00000004   [5]  11 1C 18 86 00
 (1628569115.553607)  can1  0000000A   [8]  20 46 52 4F 4E 54 20 20
 (1628569115.554073)  can1  00000004   [5]  11 1C 18 86 00
 (1628569115.654012)  can1  0000000A   [8]  20 46 52 4F 4E 54 20 20
 (1628569115.654806)  can1  00000004   [5]  11 1C 18 84 00
 (1628569115.754358)  can1  0000000A   [8]  20 46 52 4F 4E 54 20 20
 (1628569115.754814)  can1  00000004   [5]  11 1C 18 86 00
 (1628569115.854745)  can1  0000000A   [8]  20 46 52 4F 4E 54 20 20
 (1628569115.855210)  can1  00000004   [5]  11 1C 18 84 00
 (1628569115.955112)  can1  0000000A   [8]  20 46 52 4F 4E 54 20 20
 (1628569115.955571)  can1  00000004   [5]  11 1A 18 86 00
